#Digilent WaveForms Network Analyzer - Bode
#Device Name: Discovery2NI
#Serial Number: SN:210321ABE52A
#Date Time: 2021-12-09 11:37:55.444
#Start: 100 Hz
#Stop: 50000 Hz
#Steps: 151
#Wavegen: Wavegen1
#Amplification: 1 X
#Settle: 10 ms
#MinPeriods: 16 
#Channel: Channel 1
#Range: 61.1815 V
#Offset: -0.00313441 V
#Relative: no
#Channel: Channel 2
#Range: 61.0913 V
#Offset: 0.00303711 V
#Relative: yes

Frequency (Hz),Channel 1 Magnitude (dB),Channel 2 Magnitude (dB),Channel 2 Phase (*)
100.0000000000001,-0.3441929242289412,-0.1264725340095477,-1.17673897880357
104.2300949424216,-0.3318231770140698,-0.1348843198984764,-1.377223738945986
108.6391269170621,-0.3403358435961085,-0.1433636079881597,-1.206137465113159
113.2346651302716,-0.3312716120293636,-0.1181020648078298,-1.365044969157296
118.0245989730151,-0.3389849904424398,-0.109924095156853,-1.493041864470896
123.0171515649861,-0.3316767800863151,-0.1239170050764478,-1.564159218291707
128.2208938716475,-0.343817977072627,-0.1291114361206319,-1.610278591479911
133.6447594184397,-0.3302122424871731,-0.1456656461529261,-1.718909525721983
139.2980596274105,-0.3275580641136425,-0.1235798977938058,-1.791514114377051
145.1904998026008,-0.3101306852398173,-0.1485773481712762,-1.870542545408028
151.3321957916271,-0.3129302137616657,-0.1587653781096396,-1.757866472095543
157.7336913520643,-0.3308801609733441,-0.1404244930586309,-1.925450756966796
164.4059762524425,-0.3193682685210822,-0.1522055181037889,-2.001832398619001
171.360505138936,-0.3256670098239817,-0.1345897760241768,-2.024570165080524
178.609217200126,-0.3150407864032897,-0.148619605727941,-2.307861245733562
186.1645566636072,-0.3100965435063407,-0.1652568635543757,-2.222318584628617
194.0394941596158,-0.3169047920443956,-0.1502745986763865,-2.471468704830954
202.247548988362,-0.3178798175402945,-0.1646094588520204,-2.520424120838447
210.8028123292901,-0.3213859550110718,-0.1502963166212722,-2.513436197478768
219.7199714321139,-0.3162520039958601,-0.140573006591839,-2.725592259122621
229.0143348311534,-0.3161176116892905,-0.1738255605915105,-2.815283026017738
238.7018586262665,-0.3249860730753818,-0.1413029008600266,-3.01856344352916
248.7991738754823,-0.3117910624264134,-0.163528695752795,-3.141581500940752
259.3236151463755,-0.3397690220709648,-0.1398017565546577,-3.36975247707673
270.2932502751869,-0.3225733340415955,-0.1508409421980941,-3.361075980172018
281.7269113847843,-0.3390360145693171,-0.1570348218197668,-3.621644886623791
293.6442272147124,-0.3091942730205095,-0.1654968073652532,-3.548921506129427
306.0656568188346,-0.2980982960282431,-0.1737533691561456,-3.592131609124863
319.0125246884172,-0.3107121431209129,-0.1948822174900931,-3.867139009058907
332.5070573609534,-0.315273823039979,-0.1845685802592284,-4.050152837706747
346.5724215775736,-0.3304690245418893,-0.1536890466926782,-4.222045742220374
361.2327640545542,-0.3215783766085972,-0.1774957557032557,-4.346277129868056
376.5132529371953,-0.3361717385338462,-0.1510207283623053,-4.560524970071526
392.4401210072382,-0.2969429019957074,-0.2118621889748897,-4.849170662198418
409.0407107179982,-0.3386974178669195,-0.1892617600611854,-5.053083048946576
426.3435211345256,-0.3204058134482504,-0.2068765212583834,-5.281237081292952
444.3782568593789,-0.3004522836647147,-0.2177122333756163,-5.471494201074307
463.1758790280082,-0.310703731398887,-0.2273702274579552,-5.689196660306081
482.7686584612883,-0.3131715186275705,-0.2271574233581315,-5.979114175495042
503.1902310664553,-0.324490789444542,-0.2104236536538115,-6.221519070714518
524.4756555815562,-0.3070992668484812,-0.2432006900743315,-5.989516003334103
546.6614737625438,-0.2955487480198424,-0.2554359783319271,-6.830376989728705
569.7857731163404,-0.3251044437993838,-0.2292234838808858,-6.949516732310276
593.8882522875714,-0.2822236368629915,-0.2861500618343664,-7.226008578329953
619.0102892112237,-0.3241284870730741,-0.2583073406690334,-7.409945982491152
645.1950121482167,-0.3429290276639005,-0.254182814866681,-7.753874159838272
672.4873737258538,-0.3019614023792706,-0.2879568280955423,-8.157592345590004
700.9342281102546,-0.3135299309603543,-0.2898524502512437,-8.227806675697323
730.584411443248,-0.330353498353988,-0.3089361933004928,-8.836149945715675
761.4888256818282,-0.293499469080948,-0.3184812978569596,-8.752945319575986
793.7005259841002,-0.2724196723544466,-0.3823215726886854,-9.237983603248352
827.2748117917272,-0.3113829031084726,-0.3376634498005644,-9.464274380406948
862.2693217652554,-0.3025942829879402,-0.3534278040723048,-9.893991482786419
898.7441327352996,-0.3006164450942271,-0.3701784883369724,-10.33072311418882
936.7618628394459,-0.3050240472786189,-0.348204178639156,-10.86597778910509
976.3877790219507,-0.2854372171573596,-0.4378774673885386,-11.12649491234482
1017.68990908078,-0.3047040894677652,-0.4079591527470711,-11.29886315977458
1060.73915845434,-0.2962350649516932,-0.4386165365267627,-11.82266021595242
1105.609431948401,-0.2821350977502878,-0.4599219569624595,-12.22143915033158
1152.377760612186,-0.2902035682554765,-0.4653940531106207,-12.68706424211225
1201.124433981432,-0.3310818676423433,-0.4955267275355713,-13.0853290363528
1251.93313791547,-0.2749308300521718,-0.5023737155296635,-13.56773419449669
1304.891098264931,-0.3026553219182955,-0.5225714319886089,-14.24179245230901
1360.089230616743,-0.317563281680916,-0.5261548824006166,-14.69162783560948
1417.622296373483,-0.2828872849833234,-0.5663311924212145,-15.29642878814714
1477.589065435017,-0.270372558429195,-0.5929489219278847,-15.45295517788193
1540.092485761756,-0.2501024947454589,-0.6212252925461609,-16.29056473147041
1605.239860110578,-0.2669426499417789,-0.6313876332342617,-16.50012445591616
1673.14303024685,-0.2760764131121696,-0.6226180999418347,-17.40504109769331
1743.918568948799,-0.3051078220392195,-0.619581963480029,-17.7384249867962
1817.687980133853,-0.2819314343786941,-0.6827084759339987,-18.57283722446182
1894.577907450499,-0.2687008580528602,-0.6964442549280325,-19.26425571937735
1974.720351693797,-0.2788837199770898,-0.7336105863946132,-19.90283196585332
2058.252897417765,-0.2655520681116031,-0.7282331893375866,-20.10410614631935
2145.318949133678,-0.278541791445275,-0.7723106388123548,-21.11207877006809
2236.067977499791,-0.2531391124602569,-0.8153468576178237,-21.6309430715847
2330.655775925117,-0.251614758568832,-0.8272201634058985,-22.41813180741048
2429.244728027779,-0.2282746772365983,-0.8344558078838034,-23.40689599593482
2532.004086407124,-0.2326375793583375,-0.8681391803368581,-24.22882768038282
2639.110263208136,-0.2226224622809398,-0.8412691472237938,-25.0537344826072
2750.747132977031,-0.2413597297783237,-0.8716259317011534,-25.9942103021059
2867.106348327898,-0.2364717360256165,-0.8200904140148897,-26.78676206434881
2988.38766896236,-0.1982885262240513,-0.9477446735967734,-27.59645279871972
3114.799304607086,-0.192179817908821,-0.9266689064343985,-28.87362282806379
3246.558272457852,-0.2031083199218531,-0.9788977257479875,-30.04161083659949
3383.890769743857,-0.1842032286329044,-0.9088403961503846,-30.5891430555457
3527.032562051862,-0.211699352555689,-0.9685889934298251,-32.03454468584115
3676.229388076776,-0.1665226777756202,-0.9822234931207409,-33.13193377818779
3831.737381493625,-0.1804726942818232,-0.9676817573282515,-34.60021903482046
3993.823510675062,-0.184451045463898,-0.9406084662792293,-35.59235162999828
4162.766037009368,-0.172898866794467,-0.9315302113732793,-36.59964517350462
4338.854992605741,-0.1409158338867377,-1.008513079571907,-38.57004907982957
4522.392678206958,-0.1725770444639279,-0.9921271267678516,-39.87447987547337
4713.694182164233,-0.134211600314513,-0.9551067718608296,-41.55830876757738
4913.087921365179,-0.1176977496088145,-0.9559347857921591,-42.9979472705681
5120.916205043567,-0.1237722170118745,-0.9479126819418343,-44.75781988179951
5337.53582243876,-0.1303226514737304,-1.004308572853219,-47.07334112781959
5563.318655313677,-0.1275613346264179,-1.037359729303218,-48.09964463818675
5798.652316382892,-0.1103610969469944,-1.016187567930225,-50.16734994196911
6043.940814746816,-0.07195429726874888,-1.068698226912217,-52.27940248540413
6299.605249474367,-0.127374032647174,-1.015621221887841,-54.44408968645359
6566.084532524903,-0.1041112916891174,-0.9468450894768425,-56.58694989927271
6843.836142250362,-0.09060822224345949,-1.053703841551826,-58.84951517821813
7133.336908771306,-0.123609808224198,-0.928357946863792,-61.77751135625866
7435.083832575129,-0.1249940771808208,-0.9770914418489375,-63.79758417158109
7749.594937741685,-0.1109255658419964,-0.9835813752314265,-66.28039729903605
8077.410161261253,-0.1624824631490885,-0.8496789516562324,-69.22192381136743
8419.092279971408,-0.1065100630530416,-0.8145215028884828,-72.31826236719806
8775.227876704274,-0.09602514822482996,-0.9281145272257771,-75.60841497161118
9146.428347302706,-0.1182788194459986,-0.8024377475854236,-78.34785036651735
9533.33095023416,-0.07991888941884095,-0.7540573437017482,-81.94238746395453
9936.599900604322,-0.07047010729369579,-0.6903303729440304,-85.69889094274767
10356.92751044845,-0.1557046919051965,-0.5777865797212994,-89.965879699502
10795.03537725818,-0.08277249292423824,-0.5869581661241414,-95.00168129709577
11251.6756227842,-0.1684821224535898,-0.4790522636024631,-100.2138585147575
11727.63218424127,-0.1246881083593278,-0.426631212414034,-106.1769681231908
12223.72216013265,-0.206736788808612,0.2527821830881746,-117.1447282466675
12740.79721300408,-0.1786001602469351,-0.2479350485585781,-126.4073072171356
13279.74503153555,-0.1738683629569958,-0.5856849466889978,-128.0740999399595
13841.490854481,-0.1973072456685309,-0.852522679858188,-133.1369320985036
14426.99905907214,-0.2159124394910321,-1.098368362601097,-138.3979188563697
15037.27481661315,-0.2314297794453513,-1.494026645871309,-143.6329245888314
15673.36581810872,-0.2711243882174567,-1.749231379592763,-149.7930688678355
16336.36407288775,-0.2639942215639932,-2.109711314577726,-155.4374747981791
17027.40778331055,-0.2888863439057459,-2.109303201264703,-162.506875834181
17747.68329877786,-0.2486043299125055,-2.91842232644944,-166.7667466567833
18498.42715239644,-0.1940894568451851,-3.183526922249173,-171.7389488596644
19280.92818379749,-0.2590632623928558,-3.541530808096963,-177.2626578560709
20096.52975175224,-0.249439982126482,-3.853018798426401,177.5496884212243
20946.63204038333,-0.3036578593117271,-4.012250838457062,172.5031929875973
21832.69446293124,-0.2858055328811864,-4.402420654217122,165.0643098995434
22756.23816720202,-0.3523306291110977,-4.054244671286968,163.2212869581027
23718.84864699823,-0.2501323351803975,-6.8361052753107,136.831557098213
24722.17846401552,-0.24418265724729,-1.349152786675856,112.4634001276194
25767.95008487826,-0.3081122766740563,-0.9893996391680004,125.2808437597348
26857.95883818439,-0.3073209901650852,-4.444581738894964,128.5305365766837
27994.07599663607,-0.2619085431472555,-8.910850835640717,121.3445389326822
29178.25198954741,-0.2644076673878745,-8.569921149943534,105.973707250064
30412.51975124426,-0.1724276969112136,-9.595903403126039,98.99708062216325
31698.99821110458,-0.2758915529995734,-9.797082188452841,89.17722662857216
33039.89593123081,-0.2722124791669063,-10.77478470133811,76.65797823940062
34437.51489799911,-0.2702177925174041,-12.41431844725797,64.89859176969837
35894.25447399503,-0.3294730326057791,-14.45028627010486,48.62043391910028
37412.61551711941,-0.2063401470374867,-18.03076803843378,44.55658458046096
38995.20467393667,-0.2942970353592314,-21.34428406998361,28.50233399896196
40644.73885463578,-0.2601967512384759,-10.92516620300861,-19.00712639295764
42364.04989728618,-0.2518142290274167,-11.43522157462634,103.1627434589016
44156.08942939618,-0.3251124606524627,4.157309373461787,-124.4173310383077
46023.93393512021,0.218515569687639,10.83994708011989,17.55373803392738
47970.79003681312,-0.7799475782131522,13.31369113324754,-158.0595039766428
50000,-0.5934302228066479,13.18600050321129,-134.5158219024078
