#Digilent WaveForms Network Analyzer - Bode
#Device Name: Discovery2
#Serial Number: SN:210321A18885
#Date Time: 2021-12-02 11:30:20.134
#Start: 100 Hz
#Stop: 1.79e+06 Hz
#Steps: 151
#Wavegen: Wavegen1
#Amplification: 1 X
#Settle: 10 ms
#MinPeriods: 16 
#Channel: Channel 2
#Range: 60.4918 V
#Offset: -0.00337698 V
#Relative: yes

Frequency (Hz),Channel 2 Magnitude (dB),Channel 2 Phase (*)
99.99999999999997,-0.1997411070242854,-0.6668670508670402
106.7461827407249,-0.246706075999101,-0.7417971784233348
113.9474752971624,-0.1009177723934528,-0.8892902299262175
121.6345802091517,-0.1334533840258462,-0.7717094951380261
129.8402712659747,-0.1290763361122733,-0.9803551169237448
138.5995332366304,-0.1836756234373107,-1.227993059501358
147.9497110265652,-0.1685170571490059,-1.298304694044962
157.9306688967918,-0.1570796837620681,-1.155105192746149
168.584960424219,-0.1759814284004939,-1.363159157468459
179.9580099278157,-0.1513764346638585,-1.454770236425059
192.0983061341181,-0.1622924383593563,-1.656110459721075
205.0576089077631,-0.1504687025936152,-1.614589135897532
218.8911699284419,-0.1580795032691623,-1.768180964229643
233.6579682551256,-0.1994197914092475,-2.000296958633101
249.4209617818817,-0.1432416207150721,-2.341388863674524
266.247355657361,-0.1368246770366035,-2.495422898952725
284.2088888123548,-0.163170884363461,-2.626134431814187
303.3821398170199,-0.1550311534049976,-2.390742971883526
323.8488533717981,-0.1594384317184784,-2.777349016015989
345.6962888240024,-0.1624571593017183,-2.873291959032024
369.0175921959739,-0.1827384242140455,-3.044644273833512
393.9121933109375,-0.1480923985322779,-3.577131403280752
420.4862297096915,-0.1396981373252876,-3.540116580490405
448.8529991654918,-0.09854696598336411,-3.850566095813747
479.133442726421,-0.1645405252492886,-4.248820488720099
511.4566603446721,-0.09730819217575615,-4.429897208238287
545.9604612911326,-0.07000067268974015,-4.716309943363896
582.7919517019373,-0.08245635246698857,-5.123066934624688
622.1081617619882,-0.06358673149602993,-5.448127510198745
664.0767151994173,-0.03435930170613783,-6.007703024499136
708.8765439453736,-0.03392621398185373,-6.420434821928779
756.6986510060647,-0.02822272725427772,-7.017485085950767
807.7469247995343,0.03228474107899632,-7.36337812563356
862.2390084290971,0.06048222387760206,-8.111846805284642
920.4072275995396,0.0977565914443761,-8.398812575236263
982.4995811322459,0.1145056121606054,-9.074460384126091
1048.780798302284,0.2100276139447677,-9.636958941326419
1119.533467505392,0.2902323847171025,-10.9555623461296
1195.05924106688,0.3336414466471965,-11.27864210673511
1275.680121329173,0.3663755614987405,-12.20856000961197
1361.73983350114,0.4431682952447864,-13.09714393734731
1453.605291122372,0.5421460238139644,-14.32470558206694
1551.668160390336,0.6551300040933179,-15.51092861715675
1656.346530019913,0.7162880208760449,-16.46758219951077
1768.086693754713,0.865693340598625,-18.32104812028071
1887.36505312985,1.012906208378015,-19.94199999003297
2014.69014859857,1.19957273516945,-21.85210649293269
2150.604827682415,1.362143510697061,-23.72220261215503
2295.688559388726,1.550707330246677,-26.51376351006391
2450.559904763006,1.776868742804481,-29.13941611013028
2615.879154109251,2.019751611252512,-32.23795493771718
2792.351142121997,2.215074997711803,-36.23829408623176
2980.728252932267,2.446027531913077,-40.07255473177575
3181.813627879496,2.695051325752571,-45.28533498591389
3396.46458968554,2.917552461211354,-51.2530450351661
3625.596297629741,3.089271886499241,-58.08712797235967
3870.185649308802,2.997597286388253,-65.5879049984224
4131.275445616489,2.932893963923374,-73.71284379817183
4409.978836700481,2.55539072502117,-82.04858233797748
4707.484067851592,2.167140264165268,-91.04420288957012
5025.059545559378,1.471712251717848,-99.68167491047961
5364.059245333056,0.6695242641419434,-107.1938716913497
5725.928484343977,-0.2158653404068569,-114.7527570109728
6112.210083501044,-1.166788906756598,-121.8137388238003
6524.550945231055,-2.308525319294857,-127.3958956737914
6964.709075008039,-3.345822524088005,-132.8146590368195
7434.561076567935,-4.250414640736224,-136.9559765288722
7936.110152764018,-5.496197925580725,-141.5713459655572
8471.494646174713,-6.303471168403807,-144.5946727375883
9042.99715587639,-7.218087396425633,-147.7247715227633
9653.054269250379,-8.145472631807456,-153.6860550483551
10304.26695031537,-9.072953290736329,-155.2150716854612
10999.41162887577,-9.877593624660609,-159.4940763133114
11741.45203776428,-10.87729743338733,-162.8338482172069
12533.55184864645,-11.53838597286828,-166.535971336304
13379.08816025965,-12.5064948059443,-169.5904174678616
14281.66589659348,-13.1647635916024,-171.3715129092232
15245.13317639746,-14.24747461654467,-176.1005946835826
16273.59771954413,-15.0072518181645,179.8721177197413
17371.44436019502,-15.69255994237434,178.2549094521008
18543.35374143715,-16.70250614456532,173.1587494128691
19794.32227109358,-17.11993339853366,170.9121196755225
21129.68342378957,-17.58730393339634,168.1937776183121
22555.1304800951,-17.01645856611826,164.5612850910005
24076.74079969129,-24.73768229796275,122.8097376608404
25701.00173204915,-13.87158665140384,166.1468233535514
27434.83827509008,-20.07258250168059,156.6842728298371
29285.64259975001,-20.49679045676596,148.1147704909745
31261.30556632476,-19.49865186854639,146.6292778019937
33370.25036696548,-21.34342524427591,136.3496109681997
35621.46843775841,-19.88174211905042,134.3265296901926
38024.55779349928,-21.731451730583,115.3986762683079
40589.76394860131,-14.82783504997423,-68.99285003821529
43328.02359860289,5.232071875318632,32.3925348100499
46251.01124850909,11.79521371912912,-7.187842174083897
49371.18898676678,13.58488024808495,-73.52234970833398
52701.85961708279,13.9904835402165,-166.311368647191
56257.22337461149,12.12882440574503,68.60303998898905
60052.43846832068,-10.07133223561961,71.46005761912119
64103.68570765506,-32.6298302528767,86.40289999283388
68428.23748903342,-47.27733170033918,84.35843940180254
73044.53143630095,-38.44989372599529,30.87257772236065
77972.24900910017,-38.10087955606561,-38.71079617055756
83232.39941430713,-38.86327353882168,78.06976342161499
88847.40917828647,-9.479324122011185,-162.6026220601746
94841.2177618533,-1.679231694669124,-118.1336164228001
101239.3796255969,0.4898037812916604,-5.937303069071248
108069.173180716,-0.9910787178600956,-5.391219134308656
115359.7170898776,-7.498541638772976,102.2117517081515
123142.0944139442,-25.42059216730845,56.11831420300048
131449.4851338649,-17.13814949527904,94.66513894596888
140317.3076127376,-9.388410139641195,125.5094219700212
149783.3696011581,-7.111918279602952,114.0822558121503
159888.0294296677,-8.112049648625373,90.65480331241963
170674.3680755373,-27.00168964384833,-91.91452313581749
182188.3728374908,-25.27592013349414,129.9472859915539
194479.1334014612,-11.95142544635754,-153.6282363310932
207599.0511333022,-12.50267094632229,-86.573065243371
221604.0624907657,-13.908212801576,-106.3033490370072
236553.8775072633,-13.70292361121695,-21.7596683634015
252512.2343641742,-16.6555015984798,-42.39745470025935
269547.1711370689,-16.35573156409672,-98.96806415086417
287731.3158744305,-21.11424075160791,130.0363764643096
307142.1962456121,-18.1691132091732,-160.4821626594315
327862.5700782174,-23.99678998687248,167.06838070306
349980.7781941316,-25.3664975643029,5.686602959793291
373591.121048519,-27.41130634474389,-163.3666038776997
398794.2607775754,-21.53628544263321,-136.7210419361331
425697.6503691541,-26.05058656246667,43.1625871790653
454415.9917860297,-31.0157320433494,-129.4566944210066
485071.7249949932,-33.7959379965708,-1.31951426156467
517795.5499867421,-29.24212780560278,-32.88044019126196
552726.98401219,-36.40084397557143,-138.1085637574211
590014.9564109506,-39.09696328667192,87.74130070422181
629818.4435680418,-44.28471900200429,-119.1079830283799
672307.1467059322,-41.02829940432124,123.578457356102
717662.215401668,-29.04887059183233,168.3768541926815
766077.0199138003,-22.40332339821597,-161.9002683504286
817757.9756118858,-28.81147536602195,143.2476096798288
872925.4230235164,-35.53329364770993,-177.6616050164228
931814.56725093,-34.71689164725244,-109.6077929768406
994676.4807623728,-34.14629467948561,-178.8175867037434
1061779.173833615,-31.84975204067517,-169.7235457078457
1133408.737203392,-33.91120334914729,-156.2121788835939
1209870.561814475,-30.6165314212109,-157.9047376079712
1291490.640840716,-43.1780415795457,-97.89706006547708
1378616.959551192,-37.08733892454499,-125.3918605575363
1471620.978937142,-37.08428931605673,-75.85619271234805
1570899.219427088,-36.88952834715043,-67.83585229168121
1676874.951442261,-47.8172224322839,-33.58295659732403
1790000,-32.47528160235032,-75.40190355075441
